T489C 000:004.842   SEGGER J-Link V7.96 Log File
T489C 000:004.981   DLL Compiled: Mar  7 2024 16:45:42
T489C 000:004.987   Logging started @ 2026-09-01 14:50
T489C 000:004.992   Process: D:\keil\UV4\UV4.exe
T489C 000:004.999 - 4.996ms
T489C 000:005.008 JLINK_SetWarnOutHandler(...)
T489C 000:005.013 - 0.006ms
T489C 000:005.020 JLINK_OpenEx(...)
T489C 000:006.801   Firmware: J-Link V9 compiled May  7 2021 16:26:12
T489C 000:007.788   Firmware: J-Link V9 compiled May  7 2021 16:26:12
T489C 000:007.947   Decompressing FW timestamp took 134 us
T489C 000:015.612   Hardware: V9.40
T489C 000:015.630   S/N: 69405592
T489C 000:015.638   OEM: SEGGER
T489C 000:015.646   Feature(s): RDI, GDB, FlashDL, FlashBP, JFlash
T489C 000:016.191   Bootloader: (Could not read)
T489C 000:017.097   TELNET listener socket opened on port 19021
T489C 000:017.202   WEBSRV WEBSRV_Init(): Starting webserver thread(s)
T489C 000:017.396   WEBSRV Webserver running on local port 19080
T489C 000:017.502   Looking for J-Link GUI Server exe at: D:\keil\ARM\Segger\JLinkGUIServer.exe
T489C 000:017.570   Looking for J-Link GUI Server exe at: D:\\JLink_V796\JLinkGUIServer.exe
T489C 000:017.584   Forking J-Link GUI Server: D:\\JLink_V796\JLinkGUIServer.exe
T489C 000:043.653   J-Link GUI Server info: "J-Link GUI server V7.96 "
T489C 000:046.206 - 41.178ms returns "O.K."
T489C 000:046.246 JLINK_GetEmuCaps()
T489C 000:046.257 - 0.008ms returns 0xB9FF7BBF
T489C 000:046.272 JLINK_TIF_GetAvailable(...)
T489C 000:046.616 - 0.344ms
T489C 000:046.625 JLINK_SetErrorOutHandler(...)
T489C 000:046.630 - 0.005ms
T489C 000:046.649 JLINK_ExecCommand("ProjectFile = "D:\stm32\freertos_hello\freertos_hello\MDK-ARM\JLinkSettings.ini"", ...). 
T489C 000:059.749   Ref file found at: D:\keil\ARM\Segger\JLinkDevices.ref
T489C 000:059.835   REF file references invalid XML file: D:\JLink_V796\JLinkDevices.xml
T489C 000:061.057 - 14.409ms returns 0x00
T489C 000:064.838 JLINK_ExecCommand("Device = STM32F411CEUx", ...). 
T489C 000:069.069   Device "STM32F411CE" selected.
T489C 000:069.453 - 4.583ms returns 0x00
T489C 000:069.469 JLINK_ExecCommand("DisableConnectionTimeout", ...). 
T489C 000:069.479 - 0.001ms returns 0x01
T489C 000:069.485 JLINK_GetHardwareVersion()
T489C 000:069.495 - 0.005ms returns 94000
T489C 000:069.501 JLINK_GetDLLVersion()
T489C 000:069.506 - 0.005ms returns 79600
T489C 000:069.512 JLINK_GetOEMString(...)
T489C 000:069.518 JLINK_GetFirmwareString(...)
T489C 000:069.523 - 0.005ms
T489C 000:082.576 JLINK_GetDLLVersion()
T489C 000:082.605 - 0.028ms returns 79600
T489C 000:082.612 JLINK_GetCompileDateTime()
T489C 000:082.617 - 0.005ms
T489C 000:085.449 JLINK_GetFirmwareString(...)
T489C 000:085.471 - 0.021ms
T489C 000:087.939 JLINK_GetHardwareVersion()
T489C 000:087.958 - 0.018ms returns 94000
T489C 000:090.423 JLINK_GetSN()
T489C 000:090.443 - 0.019ms returns 69405592
T489C 000:093.024 JLINK_GetOEMString(...)
T489C 000:100.137 JLINK_TIF_Select(JLINKARM_TIF_SWD)
T489C 000:100.998 - 0.860ms returns 0x00
T489C 000:101.018 JLINK_HasError()
T489C 000:101.033 JLINK_SetSpeed(5000)
T489C 000:101.125 - 0.094ms
T489C 000:101.134 JLINK_GetId()
T489C 000:103.821   InitTarget() start
T489C 000:103.841    J-Link Script File: Executing InitTarget()
T489C 000:106.516   SWD selected. Executing JTAG -> SWD switching sequence.
T489C 000:112.437   DAP initialized successfully.
T489C 000:120.022   InitTarget() end - Took 13.5ms
T489C 000:123.168   Found SW-DP with ID 0x2BA01477
T489C 000:128.478   DPIDR: 0x2BA01477
T489C 000:130.996   CoreSight SoC-400 or earlier
T489C 000:133.314   Scanning AP map to find all available APs
T489C 000:136.128   AP[1]: Stopped AP scan as end of AP map has been reached
T489C 000:138.358   AP[0]: AHB-AP (IDR: 0x24770011)
T489C 000:145.414   Iterating through AP map to find AHB-AP to use
T489C 000:149.042   AP[0]: Core found
T489C 000:151.323   AP[0]: AHB-AP ROM base: 0xE00FF000
T489C 000:154.190   CPUID register: 0x410FC241. Implementer code: 0x41 (ARM)
T489C 000:156.616   Found Cortex-M4 r0p1, Little endian.
T489C 000:157.179   -- Max. mem block: 0x00010C40
T489C 000:157.631   CPU_ReadMem(4 bytes @ 0xE000EDF0)
T489C 000:157.937   CPU_ReadMem(4 bytes @ 0xE0002000)
T489C 000:161.225   FPUnit: 6 code (BP) slots and 2 literal slots
T489C 000:161.251   CPU_ReadMem(4 bytes @ 0xE000EDFC)
T489C 000:161.662   CPU_WriteMem(4 bytes @ 0xE000EDFC)
T489C 000:161.973   CPU_ReadMem(4 bytes @ 0xE0001000)
T489C 000:162.263   CPU_WriteMem(4 bytes @ 0xE0001000)
T489C 000:162.647   CPU_ReadMem(4 bytes @ 0xE000ED88)
T489C 000:162.931   CPU_WriteMem(4 bytes @ 0xE000ED88)
T489C 000:163.235   CPU_ReadMem(4 bytes @ 0xE000ED88)
T489C 000:163.520   CPU_WriteMem(4 bytes @ 0xE000ED88)
T489C 000:166.401   CoreSight components:
T489C 000:168.945   ROMTbl[0] @ E00FF000
T489C 000:168.968   CPU_ReadMem(64 bytes @ 0xE00FF000)
T489C 000:169.698   CPU_ReadMem(32 bytes @ 0xE000EFE0)
T489C 000:172.526   [0][0]: E000E000 CID B105E00D PID 000BB00C SCS-M7
T489C 000:172.552   CPU_ReadMem(32 bytes @ 0xE0001FE0)
T489C 000:178.875   [0][1]: E0001000 CID B105E00D PID 003BB002 DWT
T489C 000:178.915   CPU_ReadMem(32 bytes @ 0xE0002FE0)
T489C 000:182.128   [0][2]: E0002000 CID B105E00D PID 002BB003 FPB
T489C 000:182.158   CPU_ReadMem(32 bytes @ 0xE0000FE0)
T489C 000:185.256   [0][3]: E0000000 CID B105E00D PID 003BB001 ITM
T489C 000:185.279   CPU_ReadMem(32 bytes @ 0xE0040FE0)
T489C 000:188.395   [0][4]: E0040000 CID B105900D PID 000BB9A1 TPIU
T489C 000:188.423   CPU_ReadMem(32 bytes @ 0xE0041FE0)
T489C 000:192.146   [0][5]: E0041000 CID B105900D PID 000BB925 ETM
T489C 000:192.445 - 91.310ms returns 0x2BA01477
T489C 000:192.525 JLINK_GetDLLVersion()
T489C 000:192.531 - 0.005ms returns 79600
T489C 000:192.538 JLINK_CORE_GetFound()
T489C 000:192.543 - 0.005ms returns 0xE0000FF
T489C 000:192.549 JLINK_GetDebugInfo(0x100 = JLINKARM_ROM_TABLE_ADDR_INDEX)
T489C 000:192.555   Value=0xE00FF000
T489C 000:192.561 - 0.013ms returns 0
T489C 000:195.177 JLINK_GetDebugInfo(0x100 = JLINKARM_ROM_TABLE_ADDR_INDEX)
T489C 000:195.194   Value=0xE00FF000
T489C 000:195.202 - 0.025ms returns 0
T489C 000:195.208 JLINK_GetDebugInfo(0x101 = JLINKARM_DEBUG_INFO_ETM_ADDR_INDEX)
T489C 000:195.213   Value=0xE0041000
T489C 000:195.220 - 0.011ms returns 0
T489C 000:195.232 JLINK_ReadMemEx(0xE0041FD0, 0x20 Bytes, Flags = 0x02000004)
T489C 000:195.254   CPU_ReadMem(32 bytes @ 0xE0041FD0)
T489C 000:195.810   Data:  04 00 00 00 00 00 00 00 00 00 00 00 00 00 00 00 ...
T489C 000:195.819 - 0.587ms returns 32 (0x20)
T489C 000:195.826 JLINK_GetDebugInfo(0x102 = JLINKARM_DEBUG_INFO_MTB_ADDR_INDEX)
T489C 000:195.831   Value=0x00000000
T489C 000:195.838 - 0.011ms returns 0
T489C 000:195.844 JLINK_GetDebugInfo(0x103 = JLINKARM_DEBUG_INFO_TPIU_ADDR_INDEX)
T489C 000:195.848   Value=0xE0040000
T489C 000:195.855 - 0.011ms returns 0
T489C 000:195.861 JLINK_GetDebugInfo(0x104 = JLINKARM_DEBUG_INFO_ITM_ADDR_INDEX)
T489C 000:195.865   Value=0xE0000000
T489C 000:195.872 - 0.011ms returns 0
T489C 000:195.878 JLINK_GetDebugInfo(0x105 = JLINKARM_DEBUG_INFO_DWT_ADDR_INDEX)
T489C 000:195.883   Value=0xE0001000
T489C 000:195.889 - 0.011ms returns 0
T489C 000:195.895 JLINK_GetDebugInfo(0x106 = JLINKARM_DEBUG_INFO_FPB_ADDR_INDEX)
T489C 000:195.900   Value=0xE0002000
T489C 000:195.907 - 0.012ms returns 0
T489C 000:195.913 JLINK_GetDebugInfo(0x107 = JLINKARM_DEBUG_INFO_NVIC_ADDR_INDEX)
T489C 000:195.917   Value=0xE000E000
T489C 000:195.924 - 0.011ms returns 0
T489C 000:195.929 JLINK_GetDebugInfo(0x10C = JLINKARM_DEBUG_INFO_DBG_ADDR_INDEX)
T489C 000:195.934   Value=0xE000EDF0
T489C 000:195.941 - 0.011ms returns 0
T489C 000:195.947 JLINK_GetDebugInfo(0x01 = Unknown)
T489C 000:195.951   Value=0x00000001
T489C 000:195.958 - 0.011ms returns 0
T489C 000:195.964 JLINK_ReadMemU32(0xE000ED00, 0x1 Items)
T489C 000:195.972   CPU_ReadMem(4 bytes @ 0xE000ED00)
T489C 000:196.268   Data:  41 C2 0F 41
T489C 000:196.276   Debug reg: CPUID
T489C 000:196.283 - 0.319ms returns 1 (0x1)
T489C 000:196.290 JLINK_GetDebugInfo(0x10F = JLINKARM_DEBUG_INFO_HAS_CORTEX_M_SECURITY_EXT_INDEX)
T489C 000:196.301   Value=0x00000000
T489C 000:196.310 - 0.019ms returns 0
T489C 000:196.316 JLINK_HasError()
T489C 000:196.323 JLINK_SetResetType(JLINKARM_CM3_RESET_TYPE_NORMAL)
T489C 000:196.328 - 0.005ms returns JLINKARM_CM3_RESET_TYPE_NORMAL
T489C 000:196.334 JLINK_Reset()
T489C 000:196.344   CPU is running
T489C 000:196.352   CPU_WriteMem(4 bytes @ 0xE000EDF0)
T489C 000:196.706   CPU is running
T489C 000:196.714   CPU_WriteMem(4 bytes @ 0xE000EDFC)
T489C 000:199.422   Reset: Halt core after reset via DEMCR.VC_CORERESET.
T489C 000:202.129   Reset: Reset device via AIRCR.SYSRESETREQ.
T489C 000:202.150   CPU is running
T489C 000:202.160   CPU_WriteMem(4 bytes @ 0xE000ED0C)
T489C 000:255.392   CPU_ReadMem(4 bytes @ 0xE000EDF0)
T489C 000:255.990   CPU_ReadMem(4 bytes @ 0xE000EDF0)
T489C 000:259.138   CPU_WriteMem(4 bytes @ 0xE000EDFC)
T489C 000:264.955   CPU_ReadMem(4 bytes @ 0xE000EDF0)
T489C 000:267.899   CPU_WriteMem(4 bytes @ 0xE0002000)
T489C 000:268.431   CPU_ReadMem(4 bytes @ 0xE000EDFC)
T489C 000:268.913   CPU_ReadMem(4 bytes @ 0xE0001000)
T489C 000:269.387 - 73.052ms
T489C 000:269.413 JLINK_Halt()
T489C 000:269.420 - 0.006ms returns 0x00
T489C 000:269.427 JLINK_ReadMemU32(0xE000EDF0, 0x1 Items)
T489C 000:269.439   CPU_ReadMem(4 bytes @ 0xE000EDF0)
T489C 000:269.898   Data:  03 00 03 00
T489C 000:269.911   Debug reg: DHCSR
T489C 000:269.919 - 0.492ms returns 1 (0x1)
T489C 000:269.938 JLINK_WriteU32_64(0xE000EDF0, 0xA05F0003)
T489C 000:269.944   Debug reg: DHCSR
T489C 000:270.261   CPU_WriteMem(4 bytes @ 0xE000EDF0)
T489C 000:270.667 - 0.728ms returns 0 (0x00000000)
T489C 000:270.681 JLINK_WriteU32_64(0xE000EDFC, 0x01000000)
T489C 000:270.686   Debug reg: DEMCR
T489C 000:270.697   CPU_WriteMem(4 bytes @ 0xE000EDFC)
T489C 000:271.005 - 0.323ms returns 0 (0x00000000)
T489C 000:282.925 JLINK_GetHWStatus(...)
T489C 000:283.148 - 0.228ms returns 0
T489C 000:292.310 JLINK_GetNumBPUnits(Type = 0xFFFFFF00)
T489C 000:292.341 - 0.031ms returns 0x06
T489C 000:292.348 JLINK_GetNumBPUnits(Type = 0xF0)
T489C 000:292.354 - 0.005ms returns 0x2000
T489C 000:292.359 JLINK_GetNumWPUnits()
T489C 000:292.365 - 0.005ms returns 4
T489C 000:299.396 JLINK_GetSpeed()
T489C 000:299.421 - 0.025ms returns 4000
T489C 000:304.580 JLINK_ReadMemU32(0xE000E004, 0x1 Items)
T489C 000:304.619   CPU_ReadMem(4 bytes @ 0xE000E004)
T489C 000:305.083   Data:  02 00 00 00
T489C 000:305.100 - 0.520ms returns 1 (0x1)
T489C 000:305.109 JLINK_ReadMemU32(0xE000E004, 0x1 Items)
T489C 000:305.119   CPU_ReadMem(4 bytes @ 0xE000E004)
T489C 000:305.481   Data:  02 00 00 00
T489C 000:305.489 - 0.380ms returns 1 (0x1)
T489C 000:305.496 JLINK_WriteMemEx(0xE0001000, 0x0000001C Bytes, Flags = 0x02000004)
T489C 000:305.502   Data:  01 00 00 00 00 00 00 00 00 00 00 00 00 00 00 00 ...
T489C 000:305.515   CPU_WriteMem(28 bytes @ 0xE0001000)
T489C 000:305.970 - 0.473ms returns 0x1C
T489C 000:305.995 JLINK_Halt()
T489C 000:306.001 - 0.005ms returns 0x00
T489C 000:306.007 JLINK_IsHalted()
T489C 000:306.012 - 0.005ms returns TRUE
T489C 000:308.548 JLINK_WriteMem(0x20000000, 0x184 Bytes, ...)
T489C 000:308.560   Data:  00 BE 0A E0 0D 78 2D 06 68 40 08 24 40 00 00 D3 ...
T489C 000:308.850   CPU_WriteMem(388 bytes @ 0x20000000)
T489C 000:311.151 - 2.602ms returns 0x184
T489C 000:311.197 JLINK_HasError()
T489C 000:311.212 JLINK_WriteReg(R0, 0x08000000)
T489C 000:311.219 - 0.013ms returns 0
T489C 000:311.225 JLINK_WriteReg(R1, 0x017D7840)
T489C 000:311.230 - 0.005ms returns 0
T489C 000:311.235 JLINK_WriteReg(R2, 0x00000001)
T489C 000:311.240 - 0.004ms returns 0
T489C 000:311.246 JLINK_WriteReg(R3, 0x00000000)
T489C 000:311.251 - 0.004ms returns 0
T489C 000:311.256 JLINK_WriteReg(R4, 0x00000000)
T489C 000:311.262 - 0.005ms returns 0
T489C 000:311.267 JLINK_WriteReg(R5, 0x00000000)
T489C 000:311.272 - 0.004ms returns 0
T489C 000:311.277 JLINK_WriteReg(R6, 0x00000000)
T489C 000:311.282 - 0.004ms returns 0
T489C 000:311.288 JLINK_WriteReg(R7, 0x00000000)
T489C 000:311.292 - 0.004ms returns 0
T489C 000:311.298 JLINK_WriteReg(R8, 0x00000000)
T489C 000:311.309 - 0.011ms returns 0
T489C 000:311.314 JLINK_WriteReg(R9, 0x20000180)
T489C 000:311.319 - 0.004ms returns 0
T489C 000:311.325 JLINK_WriteReg(R10, 0x00000000)
T489C 000:311.330 - 0.004ms returns 0
T489C 000:311.335 JLINK_WriteReg(R11, 0x00000000)
T489C 000:311.340 - 0.004ms returns 0
T489C 000:311.345 JLINK_WriteReg(R12, 0x00000000)
T489C 000:311.350 - 0.004ms returns 0
T489C 000:311.356 JLINK_WriteReg(R13 (SP), 0x20001000)
T489C 000:311.361 - 0.005ms returns 0
T489C 000:311.367 JLINK_WriteReg(R14, 0x20000001)
T489C 000:311.372 - 0.004ms returns 0
T489C 000:311.379 JLINK_WriteReg(R15 (PC), 0x20000054)
T489C 000:311.385 - 0.007ms returns 0
T489C 000:311.390 JLINK_WriteReg(XPSR, 0x01000000)
T489C 000:311.395 - 0.005ms returns 0
T489C 000:311.401 JLINK_WriteReg(MSP, 0x20001000)
T489C 000:311.406 - 0.005ms returns 0
T489C 000:311.411 JLINK_WriteReg(PSP, 0x20001000)
T489C 000:311.416 - 0.004ms returns 0
T489C 000:311.422 JLINK_WriteReg(CFBP, 0x00000000)
T489C 000:311.426 - 0.004ms returns 0
T489C 000:311.433 JLINK_SetBPEx(Addr = 0x20000000, Type = 0xFFFFFFF2)
T489C 000:311.442   CPU_ReadMem(2 bytes @ 0x20000000)
T489C 000:311.863 - 0.430ms returns 0x00000001
T489C 000:311.871 JLINK_Go()
T489C 000:311.879   CPU_WriteMem(2 bytes @ 0x20000000)
T489C 000:312.240   CPU_ReadMem(4 bytes @ 0xE0001000)
T489C 000:312.653   CPU_WriteMem(4 bytes @ 0xE0002008)
T489C 000:312.661   CPU_WriteMem(4 bytes @ 0xE000200C)
T489C 000:312.668   CPU_WriteMem(4 bytes @ 0xE0002010)
T489C 000:312.675   CPU_WriteMem(4 bytes @ 0xE0002014)
T489C 000:312.682   CPU_WriteMem(4 bytes @ 0xE0002018)
T489C 000:312.689   CPU_WriteMem(4 bytes @ 0xE000201C)
T489C 000:314.043   CPU_WriteMem(4 bytes @ 0xE0001004)
T489C 000:319.848   Memory map 'after startup completion point' is active
T489C 000:319.875 - 8.004ms
T489C 000:319.886 JLINK_IsHalted()
T489C 000:322.534   CPU_ReadMem(2 bytes @ 0x20000000)
T489C 000:322.845 - 2.958ms returns TRUE
T489C 000:322.873 JLINK_ReadReg(R15 (PC))
T489C 000:322.882 - 0.008ms returns 0x20000000
T489C 000:322.888 JLINK_ClrBPEx(BPHandle = 0x00000001)
T489C 000:322.893 - 0.005ms returns 0x00
T489C 000:322.900 JLINK_ReadReg(R0)
T489C 000:322.905 - 0.005ms returns 0x00000000
T489C 000:323.176 JLINK_HasError()
T489C 000:323.188 JLINK_WriteReg(R0, 0x08000000)
T489C 000:323.195 - 0.006ms returns 0
T489C 000:323.201 JLINK_WriteReg(R1, 0x00004000)
T489C 000:323.206 - 0.005ms returns 0
T489C 000:323.211 JLINK_WriteReg(R2, 0x000000FF)
T489C 000:323.216 - 0.004ms returns 0
T489C 000:323.221 JLINK_WriteReg(R3, 0x00000000)
T489C 000:323.226 - 0.005ms returns 0
T489C 000:323.232 JLINK_WriteReg(R4, 0x00000000)
T489C 000:323.236 - 0.004ms returns 0
T489C 000:323.242 JLINK_WriteReg(R5, 0x00000000)
T489C 000:323.247 - 0.005ms returns 0
T489C 000:323.253 JLINK_WriteReg(R6, 0x00000000)
T489C 000:323.258 - 0.005ms returns 0
T489C 000:323.264 JLINK_WriteReg(R7, 0x00000000)
T489C 000:323.269 - 0.004ms returns 0
T489C 000:323.274 JLINK_WriteReg(R8, 0x00000000)
T489C 000:323.279 - 0.004ms returns 0
T489C 000:323.284 JLINK_WriteReg(R9, 0x20000180)
T489C 000:323.289 - 0.004ms returns 0
T489C 000:323.295 JLINK_WriteReg(R10, 0x00000000)
T489C 000:323.299 - 0.005ms returns 0
T489C 000:323.305 JLINK_WriteReg(R11, 0x00000000)
T489C 000:323.310 - 0.004ms returns 0
T489C 000:323.315 JLINK_WriteReg(R12, 0x00000000)
T489C 000:323.320 - 0.004ms returns 0
T489C 000:323.326 JLINK_WriteReg(R13 (SP), 0x20001000)
T489C 000:323.331 - 0.005ms returns 0
T489C 000:323.336 JLINK_WriteReg(R14, 0x20000001)
T489C 000:323.341 - 0.004ms returns 0
T489C 000:323.347 JLINK_WriteReg(R15 (PC), 0x20000020)
T489C 000:323.351 - 0.005ms returns 0
T489C 000:323.357 JLINK_WriteReg(XPSR, 0x01000000)
T489C 000:323.362 - 0.005ms returns 0
T489C 000:323.367 JLINK_WriteReg(MSP, 0x20001000)
T489C 000:323.372 - 0.004ms returns 0
T489C 000:323.378 JLINK_WriteReg(PSP, 0x20001000)
T489C 000:323.383 - 0.005ms returns 0
T489C 000:323.388 JLINK_WriteReg(CFBP, 0x00000000)
T489C 000:323.450 - 0.062ms returns 0
T489C 000:323.460 JLINK_SetBPEx(Addr = 0x20000000, Type = 0xFFFFFFF2)
T489C 000:323.466 - 0.006ms returns 0x00000002
T489C 000:323.471 JLINK_Go()
T489C 000:323.484   CPU_ReadMem(4 bytes @ 0xE0001000)
T489C 000:326.514 - 3.042ms
T489C 000:326.534 JLINK_IsHalted()
T489C 000:329.107   CPU_ReadMem(2 bytes @ 0x20000000)
T489C 000:329.482 - 2.947ms returns TRUE
T489C 000:329.491 JLINK_ReadReg(R15 (PC))
T489C 000:329.498 - 0.007ms returns 0x20000000
T489C 000:329.504 JLINK_ClrBPEx(BPHandle = 0x00000002)
T489C 000:329.510 - 0.005ms returns 0x00
T489C 000:329.516 JLINK_ReadReg(R0)
T489C 000:329.521 - 0.005ms returns 0x00000001
T489C 000:329.527 JLINK_HasError()
T489C 000:329.534 JLINK_WriteReg(R0, 0x08000000)
T489C 000:329.539 - 0.005ms returns 0
T489C 000:329.545 JLINK_WriteReg(R1, 0x00004000)
T489C 000:329.550 - 0.005ms returns 0
T489C 000:329.557 JLINK_WriteReg(R2, 0x000000FF)
T489C 000:329.562 - 0.005ms returns 0
T489C 000:329.568 JLINK_WriteReg(R3, 0x00000000)
T489C 000:329.596 - 0.027ms returns 0
T489C 000:329.602 JLINK_WriteReg(R4, 0x00000000)
T489C 000:329.607 - 0.005ms returns 0
T489C 000:329.612 JLINK_WriteReg(R5, 0x00000000)
T489C 000:329.617 - 0.005ms returns 0
T489C 000:329.623 JLINK_WriteReg(R6, 0x00000000)
T489C 000:329.628 - 0.005ms returns 0
T489C 000:329.633 JLINK_WriteReg(R7, 0x00000000)
T489C 000:329.638 - 0.005ms returns 0
T489C 000:329.644 JLINK_WriteReg(R8, 0x00000000)
T489C 000:329.649 - 0.005ms returns 0
T489C 000:329.655 JLINK_WriteReg(R9, 0x20000180)
T489C 000:329.660 - 0.005ms returns 0
T489C 000:329.665 JLINK_WriteReg(R10, 0x00000000)
T489C 000:329.670 - 0.005ms returns 0
T489C 000:329.676 JLINK_WriteReg(R11, 0x00000000)
T489C 000:329.681 - 0.005ms returns 0
T489C 000:329.687 JLINK_WriteReg(R12, 0x00000000)
T489C 000:329.691 - 0.005ms returns 0
T489C 000:329.697 JLINK_WriteReg(R13 (SP), 0x20001000)
T489C 000:329.703 - 0.005ms returns 0
T489C 000:329.708 JLINK_WriteReg(R14, 0x20000001)
T489C 000:329.713 - 0.005ms returns 0
T489C 000:329.719 JLINK_WriteReg(R15 (PC), 0x200000C0)
T489C 000:329.725 - 0.005ms returns 0
T489C 000:329.730 JLINK_WriteReg(XPSR, 0x01000000)
T489C 000:329.735 - 0.005ms returns 0
T489C 000:329.741 JLINK_WriteReg(MSP, 0x20001000)
T489C 000:329.746 - 0.005ms returns 0
T489C 000:329.752 JLINK_WriteReg(PSP, 0x20001000)
T489C 000:329.757 - 0.005ms returns 0
T489C 000:329.763 JLINK_WriteReg(CFBP, 0x00000000)
T489C 000:329.767 - 0.005ms returns 0
T489C 000:329.774 JLINK_SetBPEx(Addr = 0x20000000, Type = 0xFFFFFFF2)
T489C 000:329.780 - 0.006ms returns 0x00000003
T489C 000:329.785 JLINK_Go()
T489C 000:329.796   CPU_ReadMem(4 bytes @ 0xE0001000)
T489C 000:332.738 - 2.949ms
T489C 000:332.755 JLINK_IsHalted()
T489C 000:333.050 - 0.294ms returns FALSE
T489C 000:333.060 JLINK_HasError()
T489C 000:357.706 JLINK_IsHalted()
T489C 000:358.103 - 0.396ms returns FALSE
T489C 000:358.115 JLINK_HasError()
T489C 000:361.698 JLINK_IsHalted()
T489C 000:362.064 - 0.364ms returns FALSE
T489C 000:362.075 JLINK_HasError()
T489C 000:364.733 JLINK_IsHalted()
T489C 000:365.063 - 0.329ms returns FALSE
T489C 000:365.074 JLINK_HasError()
T489C 000:372.919 JLINK_IsHalted()
T489C 000:373.256 - 0.336ms returns FALSE
T489C 000:373.277 JLINK_HasError()
T489C 000:375.879 JLINK_IsHalted()
T489C 000:376.259 - 0.379ms returns FALSE
T489C 000:376.278 JLINK_HasError()
T489C 000:379.881 JLINK_IsHalted()
T489C 000:380.352 - 0.470ms returns FALSE
T489C 000:380.363 JLINK_HasError()
T489C 000:383.863 JLINK_IsHalted()
T489C 000:384.232 - 0.368ms returns FALSE
T489C 000:384.241 JLINK_HasError()
T489C 000:386.870 JLINK_IsHalted()
T489C 000:387.242 - 0.371ms returns FALSE
T489C 000:387.255 JLINK_HasError()
T489C 000:389.882 JLINK_IsHalted()
T489C 000:390.197 - 0.315ms returns FALSE
T489C 000:390.206 JLINK_HasError()
T489C 000:392.872 JLINK_IsHalted()
T489C 000:393.183 - 0.310ms returns FALSE
T489C 000:393.190 JLINK_HasError()
T489C 000:395.866 JLINK_IsHalted()
T489C 000:396.256 - 0.390ms returns FALSE
T489C 000:396.271 JLINK_HasError()
T489C 000:397.904 JLINK_IsHalted()
T489C 000:398.213 - 0.308ms returns FALSE
T489C 000:398.257 JLINK_HasError()
T489C 000:401.865 JLINK_IsHalted()
T489C 000:402.242 - 0.376ms returns FALSE
T489C 000:402.251 JLINK_HasError()
T489C 000:404.902 JLINK_IsHalted()
T489C 000:405.272 - 0.369ms returns FALSE
T489C 000:405.288 JLINK_HasError()
T489C 000:406.868 JLINK_IsHalted()
T489C 000:407.180 - 0.312ms returns FALSE
T489C 000:407.187 JLINK_HasError()
T489C 000:408.854 JLINK_IsHalted()
T489C 000:409.164 - 0.309ms returns FALSE
T489C 000:409.172 JLINK_HasError()
T489C 000:411.877 JLINK_IsHalted()
T489C 000:412.188 - 0.311ms returns FALSE
T489C 000:412.196 JLINK_HasError()
T489C 000:413.857 JLINK_IsHalted()
T489C 000:414.206 - 0.348ms returns FALSE
T489C 000:414.213 JLINK_HasError()
T489C 000:415.887 JLINK_IsHalted()
T489C 000:416.184 - 0.296ms returns FALSE
T489C 000:416.192 JLINK_HasError()
T489C 000:417.877 JLINK_IsHalted()
T489C 000:418.196 - 0.318ms returns FALSE
T489C 000:418.212 JLINK_HasError()
T489C 000:419.853 JLINK_IsHalted()
T489C 000:420.211 - 0.357ms returns FALSE
T489C 000:420.217 JLINK_HasError()
T489C 000:421.857 JLINK_IsHalted()
T489C 000:422.157 - 0.299ms returns FALSE
T489C 000:422.164 JLINK_HasError()
T489C 000:423.886 JLINK_IsHalted()
T489C 000:424.209 - 0.324ms returns FALSE
T489C 000:424.222 JLINK_HasError()
T489C 000:425.868 JLINK_IsHalted()
T489C 000:426.264 - 0.396ms returns FALSE
T489C 000:426.272 JLINK_HasError()
T489C 000:427.837 JLINK_IsHalted()
T489C 000:428.192 - 0.354ms returns FALSE
T489C 000:428.201 JLINK_HasError()
T489C 000:430.860 JLINK_IsHalted()
T489C 000:431.213 - 0.350ms returns FALSE
T489C 000:431.227 JLINK_HasError()
T489C 000:432.831 JLINK_IsHalted()
T489C 000:433.126 - 0.295ms returns FALSE
T489C 000:433.133 JLINK_HasError()
T489C 000:435.869 JLINK_IsHalted()
T489C 000:436.218 - 0.348ms returns FALSE
T489C 000:436.226 JLINK_HasError()
T489C 000:437.833 JLINK_IsHalted()
T489C 000:438.144 - 0.311ms returns FALSE
T489C 000:438.154 JLINK_HasError()
T489C 000:439.873 JLINK_IsHalted()
T489C 000:440.219 - 0.346ms returns FALSE
T489C 000:440.227 JLINK_HasError()
T489C 000:441.880 JLINK_IsHalted()
T489C 000:442.179 - 0.299ms returns FALSE
T489C 000:442.187 JLINK_HasError()
T489C 000:443.865 JLINK_IsHalted()
T489C 000:444.140 - 0.274ms returns FALSE
T489C 000:444.147 JLINK_HasError()
T489C 000:446.103 JLINK_IsHalted()
T489C 000:446.431 - 0.328ms returns FALSE
T489C 000:446.439 JLINK_HasError()
T489C 000:448.204 JLINK_IsHalted()
T489C 000:448.513 - 0.308ms returns FALSE
T489C 000:448.520 JLINK_HasError()
T489C 000:450.199 JLINK_IsHalted()
T489C 000:450.518 - 0.319ms returns FALSE
T489C 000:450.525 JLINK_HasError()
T489C 000:452.197 JLINK_IsHalted()
T489C 000:452.520 - 0.322ms returns FALSE
T489C 000:452.528 JLINK_HasError()
T489C 000:454.193 JLINK_IsHalted()
T489C 000:454.548 - 0.355ms returns FALSE
T489C 000:454.557 JLINK_HasError()
T489C 000:456.177 JLINK_IsHalted()
T489C 000:456.508 - 0.330ms returns FALSE
T489C 000:456.533 JLINK_HasError()
T489C 000:458.178 JLINK_IsHalted()
T489C 000:458.496 - 0.317ms returns FALSE
T489C 000:458.516 JLINK_HasError()
T489C 000:460.257 JLINK_IsHalted()
T489C 000:460.616 - 0.358ms returns FALSE
T489C 000:460.624 JLINK_HasError()
T489C 000:462.193 JLINK_IsHalted()
T489C 000:462.531 - 0.338ms returns FALSE
T489C 000:462.538 JLINK_HasError()
T489C 000:464.196 JLINK_IsHalted()
T489C 000:464.512 - 0.315ms returns FALSE
T489C 000:464.519 JLINK_HasError()
T489C 000:466.195 JLINK_IsHalted()
T489C 000:466.517 - 0.321ms returns FALSE
T489C 000:466.524 JLINK_HasError()
T489C 000:468.200 JLINK_IsHalted()
T489C 000:468.485 - 0.284ms returns FALSE
T489C 000:468.491 JLINK_HasError()
T489C 000:470.193 JLINK_IsHalted()
T489C 000:470.514 - 0.321ms returns FALSE
T489C 000:470.522 JLINK_HasError()
T489C 000:472.202 JLINK_IsHalted()
T489C 000:472.531 - 0.328ms returns FALSE
T489C 000:472.541 JLINK_HasError()
T489C 000:474.173 JLINK_IsHalted()
T489C 000:474.515 - 0.342ms returns FALSE
T489C 000:474.531 JLINK_HasError()
T489C 000:476.205 JLINK_IsHalted()
T489C 000:476.526 - 0.320ms returns FALSE
T489C 000:476.533 JLINK_HasError()
T489C 000:478.198 JLINK_IsHalted()
T489C 000:478.485 - 0.287ms returns FALSE
T489C 000:478.492 JLINK_HasError()
T489C 000:480.198 JLINK_IsHalted()
T489C 000:480.519 - 0.320ms returns FALSE
T489C 000:480.526 JLINK_HasError()
T489C 000:482.203 JLINK_IsHalted()
T489C 000:482.522 - 0.319ms returns FALSE
T489C 000:482.530 JLINK_HasError()
T489C 000:484.202 JLINK_IsHalted()
T489C 000:484.521 - 0.319ms returns FALSE
T489C 000:484.528 JLINK_HasError()
T489C 000:486.189 JLINK_IsHalted()
T489C 000:486.510 - 0.320ms returns FALSE
T489C 000:486.518 JLINK_HasError()
T489C 000:488.197 JLINK_IsHalted()
T489C 000:488.641 - 0.443ms returns FALSE
T489C 000:488.650 JLINK_HasError()
T489C 000:490.172 JLINK_IsHalted()
T489C 000:490.462 - 0.289ms returns FALSE
T489C 000:490.470 JLINK_HasError()
T489C 000:492.199 JLINK_IsHalted()
T489C 000:492.505 - 0.306ms returns FALSE
T489C 000:492.513 JLINK_HasError()
T489C 000:494.195 JLINK_IsHalted()
T489C 000:494.471 - 0.276ms returns FALSE
T489C 000:494.478 JLINK_HasError()
T489C 000:496.284 JLINK_IsHalted()
T489C 000:496.615 - 0.331ms returns FALSE
T489C 000:496.624 JLINK_HasError()
T489C 000:498.199 JLINK_IsHalted()
T489C 000:498.494 - 0.294ms returns FALSE
T489C 000:498.501 JLINK_HasError()
T489C 000:500.191 JLINK_IsHalted()
T489C 000:500.513 - 0.321ms returns FALSE
T489C 000:500.522 JLINK_HasError()
T489C 000:502.206 JLINK_IsHalted()
T489C 000:502.511 - 0.304ms returns FALSE
T489C 000:502.518 JLINK_HasError()
T489C 000:504.199 JLINK_IsHalted()
T489C 000:504.617 - 0.417ms returns FALSE
T489C 000:504.634 JLINK_HasError()
T489C 000:506.177 JLINK_IsHalted()
T489C 000:506.493 - 0.315ms returns FALSE
T489C 000:506.501 JLINK_HasError()
T489C 000:508.201 JLINK_IsHalted()
T489C 000:508.497 - 0.296ms returns FALSE
T489C 000:508.505 JLINK_HasError()
T489C 000:510.188 JLINK_IsHalted()
T489C 000:510.469 - 0.281ms returns FALSE
T489C 000:510.476 JLINK_HasError()
T489C 000:512.196 JLINK_IsHalted()
T489C 000:512.476 - 0.280ms returns FALSE
T489C 000:512.483 JLINK_HasError()
T489C 000:514.197 JLINK_IsHalted()
T489C 000:514.493 - 0.295ms returns FALSE
T489C 000:514.500 JLINK_HasError()
T489C 000:516.190 JLINK_IsHalted()
T489C 000:516.485 - 0.295ms returns FALSE
T489C 000:516.493 JLINK_HasError()
T489C 000:519.206 JLINK_IsHalted()
T489C 000:519.596 - 0.389ms returns FALSE
T489C 000:519.619 JLINK_HasError()
T489C 000:531.634 JLINK_IsHalted()
T489C 000:532.045 - 0.410ms returns FALSE
T489C 000:532.068 JLINK_HasError()
T489C 000:540.648 JLINK_IsHalted()
T489C 000:541.037 - 0.387ms returns FALSE
T489C 000:541.057 JLINK_HasError()
T489C 000:548.647 JLINK_IsHalted()
T489C 000:549.017 - 0.369ms returns FALSE
T489C 000:549.030 JLINK_HasError()
T489C 000:554.638 JLINK_IsHalted()
T489C 000:554.993 - 0.354ms returns FALSE
T489C 000:555.005 JLINK_HasError()
T489C 000:557.642 JLINK_IsHalted()
T489C 000:557.992 - 0.348ms returns FALSE
T489C 000:558.004 JLINK_HasError()
T489C 000:560.647 JLINK_IsHalted()
T489C 000:560.973 - 0.324ms returns FALSE
T489C 000:560.983 JLINK_HasError()
T489C 000:564.635 JLINK_IsHalted()
T489C 000:565.029 - 0.393ms returns FALSE
T489C 000:565.049 JLINK_HasError()
T489C 000:571.707 JLINK_IsHalted()
T489C 000:572.133 - 0.424ms returns FALSE
T489C 000:572.155 JLINK_HasError()
T489C 000:574.640 JLINK_IsHalted()
T489C 000:574.988 - 0.347ms returns FALSE
T489C 000:574.996 JLINK_HasError()
T489C 000:577.667 JLINK_IsHalted()
T489C 000:578.013 - 0.345ms returns FALSE
T489C 000:578.032 JLINK_HasError()
T489C 000:580.654 JLINK_IsHalted()
T489C 000:580.993 - 0.338ms returns FALSE
T489C 000:581.000 JLINK_HasError()
T489C 000:583.671 JLINK_IsHalted()
T489C 000:583.996 - 0.324ms returns FALSE
T489C 000:584.008 JLINK_HasError()
T489C 000:587.645 JLINK_IsHalted()
T489C 000:588.020 - 0.374ms returns FALSE
T489C 000:588.032 JLINK_HasError()
T489C 000:590.647 JLINK_IsHalted()
T489C 000:590.995 - 0.347ms returns FALSE
T489C 000:591.006 JLINK_HasError()
T489C 000:592.638 JLINK_IsHalted()
T489C 000:592.939 - 0.300ms returns FALSE
T489C 000:592.948 JLINK_HasError()
T489C 000:595.639 JLINK_IsHalted()
T489C 000:595.956 - 0.316ms returns FALSE
T489C 000:595.964 JLINK_HasError()
T489C 000:597.643 JLINK_IsHalted()
T489C 000:597.949 - 0.306ms returns FALSE
T489C 000:597.956 JLINK_HasError()
T489C 000:600.667 JLINK_IsHalted()
T489C 000:601.061 - 0.393ms returns FALSE
T489C 000:601.082 JLINK_HasError()
T489C 000:603.721 JLINK_IsHalted()
T489C 000:604.185 - 0.463ms returns FALSE
T489C 000:604.218 JLINK_HasError()
T489C 000:605.718 JLINK_IsHalted()
T489C 000:606.059 - 0.341ms returns FALSE
T489C 000:606.079 JLINK_HasError()
T489C 000:608.626 JLINK_IsHalted()
T489C 000:609.001 - 0.374ms returns FALSE
T489C 000:609.043 JLINK_HasError()
T489C 000:612.712 JLINK_IsHalted()
T489C 000:613.105 - 0.392ms returns FALSE
T489C 000:613.126 JLINK_HasError()
T489C 000:614.693 JLINK_IsHalted()
T489C 000:615.103 - 0.409ms returns FALSE
T489C 000:615.112 JLINK_HasError()
T489C 000:617.620 JLINK_IsHalted()
T489C 000:618.017 - 0.396ms returns FALSE
T489C 000:618.032 JLINK_HasError()
T489C 000:620.652 JLINK_IsHalted()
T489C 000:620.961 - 0.309ms returns FALSE
T489C 000:620.969 JLINK_HasError()
T489C 000:622.650 JLINK_IsHalted()
T489C 000:622.921 - 0.270ms returns FALSE
T489C 000:622.928 JLINK_HasError()
T489C 000:625.641 JLINK_IsHalted()
T489C 000:625.993 - 0.351ms returns FALSE
T489C 000:626.000 JLINK_HasError()
T489C 000:628.639 JLINK_IsHalted()
T489C 000:628.949 - 0.310ms returns FALSE
T489C 000:628.957 JLINK_HasError()
T489C 000:630.640 JLINK_IsHalted()
T489C 000:631.005 - 0.364ms returns FALSE
T489C 000:631.027 JLINK_HasError()
T489C 000:634.690 JLINK_IsHalted()
T489C 000:635.006 - 0.315ms returns FALSE
T489C 000:635.029 JLINK_HasError()
T489C 000:636.704 JLINK_IsHalted()
T489C 000:637.111 - 0.406ms returns FALSE
T489C 000:637.131 JLINK_HasError()
T489C 000:639.727 JLINK_IsHalted()
T489C 000:640.103 - 0.375ms returns FALSE
T489C 000:640.123 JLINK_HasError()
T489C 000:641.714 JLINK_IsHalted()
T489C 000:642.084 - 0.369ms returns FALSE
T489C 000:642.124 JLINK_HasError()
T489C 000:643.706 JLINK_IsHalted()
T489C 000:644.122 - 0.415ms returns FALSE
T489C 000:644.142 JLINK_HasError()
T489C 000:645.713 JLINK_IsHalted()
T489C 000:646.108 - 0.393ms returns FALSE
T489C 000:646.127 JLINK_HasError()
T489C 000:648.632 JLINK_IsHalted()
T489C 000:649.019 - 0.386ms returns FALSE
T489C 000:649.040 JLINK_HasError()
T489C 000:650.709 JLINK_IsHalted()
T489C 000:651.148 - 0.437ms returns FALSE
T489C 000:651.167 JLINK_HasError()
T489C 000:652.720 JLINK_IsHalted()
T489C 000:653.120 - 0.399ms returns FALSE
T489C 000:653.140 JLINK_HasError()
T489C 000:655.718 JLINK_IsHalted()
T489C 000:658.623   CPU_ReadMem(2 bytes @ 0x20000000)
T489C 000:659.053 - 3.334ms returns TRUE
T489C 000:659.085 JLINK_ReadReg(R15 (PC))
T489C 000:659.095 - 0.009ms returns 0x20000000
T489C 000:659.101 JLINK_ClrBPEx(BPHandle = 0x00000003)
T489C 000:659.107 - 0.005ms returns 0x00
T489C 000:659.113 JLINK_ReadReg(R0)
T489C 000:659.118 - 0.005ms returns 0x00000000
T489C 000:659.457 JLINK_HasError()
T489C 000:659.470 JLINK_WriteReg(R0, 0x00000001)
T489C 000:659.477 - 0.006ms returns 0
T489C 000:659.482 JLINK_WriteReg(R1, 0x00004000)
T489C 000:659.488 - 0.005ms returns 0
T489C 000:659.494 JLINK_WriteReg(R2, 0x000000FF)
T489C 000:659.499 - 0.005ms returns 0
T489C 000:659.504 JLINK_WriteReg(R3, 0x00000000)
T489C 000:659.509 - 0.004ms returns 0
T489C 000:659.514 JLINK_WriteReg(R4, 0x00000000)
T489C 000:659.519 - 0.004ms returns 0
T489C 000:659.525 JLINK_WriteReg(R5, 0x00000000)
T489C 000:659.530 - 0.005ms returns 0
T489C 000:659.535 JLINK_WriteReg(R6, 0x00000000)
T489C 000:659.540 - 0.004ms returns 0
T489C 000:659.545 JLINK_WriteReg(R7, 0x00000000)
T489C 000:659.550 - 0.004ms returns 0
T489C 000:659.556 JLINK_WriteReg(R8, 0x00000000)
T489C 000:659.561 - 0.005ms returns 0
T489C 000:659.624 JLINK_WriteReg(R9, 0x20000180)
T489C 000:659.629 - 0.004ms returns 0
T489C 000:659.634 JLINK_WriteReg(R10, 0x00000000)
T489C 000:659.639 - 0.004ms returns 0
T489C 000:659.645 JLINK_WriteReg(R11, 0x00000000)
T489C 000:659.649 - 0.004ms returns 0
T489C 000:659.655 JLINK_WriteReg(R12, 0x00000000)
T489C 000:659.660 - 0.004ms returns 0
T489C 000:659.666 JLINK_WriteReg(R13 (SP), 0x20001000)
T489C 000:659.671 - 0.005ms returns 0
T489C 000:659.677 JLINK_WriteReg(R14, 0x20000001)
T489C 000:659.681 - 0.004ms returns 0
T489C 000:659.687 JLINK_WriteReg(R15 (PC), 0x20000086)
T489C 000:659.692 - 0.004ms returns 0
T489C 000:659.697 JLINK_WriteReg(XPSR, 0x01000000)
T489C 000:659.702 - 0.005ms returns 0
T489C 000:659.708 JLINK_WriteReg(MSP, 0x20001000)
T489C 000:659.712 - 0.004ms returns 0
T489C 000:659.718 JLINK_WriteReg(PSP, 0x20001000)
T489C 000:659.723 - 0.004ms returns 0
T489C 000:659.728 JLINK_WriteReg(CFBP, 0x00000000)
T489C 000:659.733 - 0.004ms returns 0
T489C 000:659.739 JLINK_SetBPEx(Addr = 0x20000000, Type = 0xFFFFFFF2)
T489C 000:659.745 - 0.006ms returns 0x00000004
T489C 000:659.751 JLINK_Go()
T489C 000:659.764   CPU_ReadMem(4 bytes @ 0xE0001000)
T489C 000:663.279 - 3.527ms
T489C 000:663.298 JLINK_IsHalted()
T489C 000:666.197   CPU_ReadMem(2 bytes @ 0x20000000)
T489C 000:666.570 - 3.271ms returns TRUE
T489C 000:666.590 JLINK_ReadReg(R15 (PC))
T489C 000:666.598 - 0.008ms returns 0x20000000
T489C 000:666.604 JLINK_ClrBPEx(BPHandle = 0x00000004)
T489C 000:666.610 - 0.005ms returns 0x00
T489C 000:666.616 JLINK_ReadReg(R0)
T489C 000:666.622 - 0.005ms returns 0x00000000
T489C 000:723.584 JLINK_WriteMem(0x20000000, 0x184 Bytes, ...)
T489C 000:723.601   Data:  00 BE 0A E0 0D 78 2D 06 68 40 08 24 40 00 00 D3 ...
T489C 000:723.623   CPU_WriteMem(388 bytes @ 0x20000000)
T489C 000:726.159 - 2.574ms returns 0x184
T489C 000:726.219 JLINK_HasError()
T489C 000:726.229 JLINK_WriteReg(R0, 0x08000000)
T489C 000:726.239 - 0.009ms returns 0
T489C 000:726.246 JLINK_WriteReg(R1, 0x017D7840)
T489C 000:726.252 - 0.005ms returns 0
T489C 000:726.258 JLINK_WriteReg(R2, 0x00000002)
T489C 000:726.263 - 0.005ms returns 0
T489C 000:726.270 JLINK_WriteReg(R3, 0x00000000)
T489C 000:726.275 - 0.005ms returns 0
T489C 000:726.281 JLINK_WriteReg(R4, 0x00000000)
T489C 000:726.287 - 0.005ms returns 0
T489C 000:726.293 JLINK_WriteReg(R5, 0x00000000)
T489C 000:726.299 - 0.005ms returns 0
T489C 000:726.305 JLINK_WriteReg(R6, 0x00000000)
T489C 000:726.310 - 0.005ms returns 0
T489C 000:726.316 JLINK_WriteReg(R7, 0x00000000)
T489C 000:726.322 - 0.005ms returns 0
T489C 000:726.328 JLINK_WriteReg(R8, 0x00000000)
T489C 000:726.334 - 0.005ms returns 0
T489C 000:726.340 JLINK_WriteReg(R9, 0x20000180)
T489C 000:726.345 - 0.005ms returns 0
T489C 000:726.352 JLINK_WriteReg(R10, 0x00000000)
T489C 000:726.357 - 0.005ms returns 0
T489C 000:726.364 JLINK_WriteReg(R11, 0x00000000)
T489C 000:726.369 - 0.005ms returns 0
T489C 000:726.375 JLINK_WriteReg(R12, 0x00000000)
T489C 000:726.381 - 0.005ms returns 0
T489C 000:726.388 JLINK_WriteReg(R13 (SP), 0x20001000)
T489C 000:726.394 - 0.006ms returns 0
T489C 000:726.400 JLINK_WriteReg(R14, 0x20000001)
T489C 000:726.405 - 0.005ms returns 0
T489C 000:726.412 JLINK_WriteReg(R15 (PC), 0x20000054)
T489C 000:726.417 - 0.005ms returns 0
T489C 000:726.424 JLINK_WriteReg(XPSR, 0x01000000)
T489C 000:726.429 - 0.005ms returns 0
T489C 000:726.435 JLINK_WriteReg(MSP, 0x20001000)
T489C 000:726.441 - 0.005ms returns 0
T489C 000:726.447 JLINK_WriteReg(PSP, 0x20001000)
T489C 000:726.452 - 0.005ms returns 0
T489C 000:726.459 JLINK_WriteReg(CFBP, 0x00000000)
T489C 000:726.464 - 0.005ms returns 0
T489C 000:726.471 JLINK_SetBPEx(Addr = 0x20000000, Type = 0xFFFFFFF2)
T489C 000:726.482   CPU_ReadMem(2 bytes @ 0x20000000)
T489C 000:726.874 - 0.402ms returns 0x00000005
T489C 000:726.897 JLINK_Go()
T489C 000:726.907   CPU_WriteMem(2 bytes @ 0x20000000)
T489C 000:727.430   CPU_ReadMem(4 bytes @ 0xE0001000)
T489C 000:730.761 - 3.862ms
T489C 000:730.798 JLINK_IsHalted()
T489C 000:733.797   CPU_ReadMem(2 bytes @ 0x20000000)
T489C 000:734.292 - 3.493ms returns TRUE
T489C 000:734.323 JLINK_ReadReg(R15 (PC))
T489C 000:734.335 - 0.011ms returns 0x20000000
T489C 000:734.344 JLINK_ClrBPEx(BPHandle = 0x00000005)
T489C 000:734.353 - 0.008ms returns 0x00
T489C 000:734.362 JLINK_ReadReg(R0)
T489C 000:734.369 - 0.007ms returns 0x00000000
T489C 000:734.853 JLINK_WriteMem(0x20000184, 0x27C Bytes, ...)
T489C 000:734.870   Data:  B8 4D 00 20 6D 02 00 08 27 0E 00 08 8D 0D 00 08 ...
T489C 000:734.899   CPU_WriteMem(636 bytes @ 0x20000184)
T489C 000:738.602 - 3.749ms returns 0x27C
T489C 000:738.650 JLINK_WriteMem(0x20000400, 0x184 Bytes, ...)
T489C 000:738.659   Data:  FE E7 FE E7 FE E7 FE E7 FE E7 FE E7 ED 0E 00 08 ...
T489C 000:738.686   CPU_WriteMem(388 bytes @ 0x20000400)
T489C 000:741.247 - 2.596ms returns 0x184
T489C 000:741.289 JLINK_HasError()
T489C 000:741.300 JLINK_WriteReg(R0, 0x08000000)
T489C 000:741.311 - 0.011ms returns 0
T489C 000:741.319 JLINK_WriteReg(R1, 0x00000400)
T489C 000:741.327 - 0.007ms returns 0
T489C 000:741.335 JLINK_WriteReg(R2, 0x20000184)
T489C 000:741.341 - 0.006ms returns 0
T489C 000:741.349 JLINK_WriteReg(R3, 0x00000000)
T489C 000:741.356 - 0.007ms returns 0
T489C 000:741.364 JLINK_WriteReg(R4, 0x00000000)
T489C 000:741.371 - 0.006ms returns 0
T489C 000:741.378 JLINK_WriteReg(R5, 0x00000000)
T489C 000:741.385 - 0.006ms returns 0
T489C 000:741.392 JLINK_WriteReg(R6, 0x00000000)
T489C 000:741.399 - 0.006ms returns 0
T489C 000:741.407 JLINK_WriteReg(R7, 0x00000000)
T489C 000:741.413 - 0.006ms returns 0
T489C 000:741.421 JLINK_WriteReg(R8, 0x00000000)
T489C 000:741.428 - 0.006ms returns 0
T489C 000:741.556 JLINK_WriteReg(R9, 0x20000180)
T489C 000:741.583 - 0.027ms returns 0
T489C 000:741.593 JLINK_WriteReg(R10, 0x00000000)
T489C 000:741.600 - 0.007ms returns 0
T489C 000:741.609 JLINK_WriteReg(R11, 0x00000000)
T489C 000:741.616 - 0.007ms returns 0
T489C 000:741.624 JLINK_WriteReg(R12, 0x00000000)
T489C 000:741.631 - 0.007ms returns 0
T489C 000:741.639 JLINK_WriteReg(R13 (SP), 0x20001000)
T489C 000:741.647 - 0.007ms returns 0
T489C 000:741.655 JLINK_WriteReg(R14, 0x20000001)
T489C 000:741.662 - 0.007ms returns 0
T489C 000:741.670 JLINK_WriteReg(R15 (PC), 0x2000010C)
T489C 000:741.678 - 0.007ms returns 0
T489C 000:741.686 JLINK_WriteReg(XPSR, 0x01000000)
T489C 000:741.693 - 0.007ms returns 0
T489C 000:741.701 JLINK_WriteReg(MSP, 0x20001000)
T489C 000:741.708 - 0.007ms returns 0
T489C 000:741.716 JLINK_WriteReg(PSP, 0x20001000)
T489C 000:741.723 - 0.006ms returns 0
T489C 000:741.731 JLINK_WriteReg(CFBP, 0x00000000)
T489C 000:741.738 - 0.007ms returns 0
T489C 000:741.747 JLINK_SetBPEx(Addr = 0x20000000, Type = 0xFFFFFFF2)
T489C 000:741.756 - 0.009ms returns 0x00000006
T489C 000:741.764 JLINK_Go()
T489C 000:741.783   CPU_ReadMem(4 bytes @ 0xE0001000)
T489C 000:745.261 - 3.495ms
T489C 000:745.296 JLINK_IsHalted()
T489C 000:745.657 - 0.359ms returns FALSE
T489C 000:745.699 JLINK_HasError()
T489C 000:752.056 JLINK_IsHalted()
T489C 000:754.926   CPU_ReadMem(2 bytes @ 0x20000000)
T489C 000:755.288 - 3.231ms returns TRUE
T489C 000:755.308 JLINK_ReadReg(R15 (PC))
T489C 000:755.316 - 0.007ms returns 0x20000000
T489C 000:755.322 JLINK_ClrBPEx(BPHandle = 0x00000006)
T489C 000:755.328 - 0.005ms returns 0x00
T489C 000:755.334 JLINK_ReadReg(R0)
T489C 000:755.339 - 0.005ms returns 0x00000000
T489C 000:755.901 JLINK_WriteMem(0x20000184, 0x27C Bytes, ...)
T489C 000:755.915   Data:  00 16 96 40 3E 43 46 60 0E 79 F6 43 B6 07 0D D0 ...
T489C 000:755.931   CPU_WriteMem(636 bytes @ 0x20000184)
T489C 000:759.504 - 3.603ms returns 0x27C
T489C 000:759.529 JLINK_WriteMem(0x20000400, 0x184 Bytes, ...)
T489C 000:759.534   Data:  76 1E 16 40 31 43 F0 BC 00 F0 2A BD 0C ED 00 E0 ...
T489C 000:759.550   CPU_WriteMem(388 bytes @ 0x20000400)
T489C 000:761.989 - 2.460ms returns 0x184
T489C 000:762.012 JLINK_HasError()
T489C 000:762.020 JLINK_WriteReg(R0, 0x08000400)
T489C 000:762.028 - 0.008ms returns 0
T489C 000:762.039 JLINK_WriteReg(R1, 0x00000400)
T489C 000:762.048 - 0.008ms returns 0
T489C 000:762.053 JLINK_WriteReg(R2, 0x20000184)
T489C 000:762.058 - 0.005ms returns 0
T489C 000:762.064 JLINK_WriteReg(R3, 0x00000000)
T489C 000:762.069 - 0.005ms returns 0
T489C 000:762.076 JLINK_WriteReg(R4, 0x00000000)
T489C 000:762.081 - 0.005ms returns 0
T489C 000:762.086 JLINK_WriteReg(R5, 0x00000000)
T489C 000:762.091 - 0.005ms returns 0
T489C 000:762.097 JLINK_WriteReg(R6, 0x00000000)
T489C 000:762.102 - 0.005ms returns 0
T489C 000:762.107 JLINK_WriteReg(R7, 0x00000000)
T489C 000:762.113 - 0.005ms returns 0
T489C 000:762.119 JLINK_WriteReg(R8, 0x00000000)
T489C 000:762.124 - 0.005ms returns 0
T489C 000:762.129 JLINK_WriteReg(R9, 0x20000180)
T489C 000:762.134 - 0.004ms returns 0
T489C 000:762.140 JLINK_WriteReg(R10, 0x00000000)
T489C 000:762.145 - 0.004ms returns 0
T489C 000:762.150 JLINK_WriteReg(R11, 0x00000000)
T489C 000:762.155 - 0.005ms returns 0
T489C 000:762.161 JLINK_WriteReg(R12, 0x00000000)
T489C 000:762.166 - 0.005ms returns 0
T489C 000:762.172 JLINK_WriteReg(R13 (SP), 0x20001000)
T489C 000:762.177 - 0.005ms returns 0
T489C 000:762.183 JLINK_WriteReg(R14, 0x20000001)
T489C 000:762.188 - 0.005ms returns 0
T489C 000:762.193 JLINK_WriteReg(R15 (PC), 0x2000010C)
T489C 000:762.198 - 0.005ms returns 0
T489C 000:762.204 JLINK_WriteReg(XPSR, 0x01000000)
T489C 000:762.209 - 0.005ms returns 0
T489C 000:762.215 JLINK_WriteReg(MSP, 0x20001000)
T489C 000:762.220 - 0.005ms returns 0
T489C 000:762.226 JLINK_WriteReg(PSP, 0x20001000)
T489C 000:762.231 - 0.005ms returns 0
T489C 000:762.236 JLINK_WriteReg(CFBP, 0x00000000)
T489C 000:762.241 - 0.004ms returns 0
T489C 000:762.248 JLINK_SetBPEx(Addr = 0x20000000, Type = 0xFFFFFFF2)
T489C 000:762.254 - 0.006ms returns 0x00000007
T489C 000:762.260 JLINK_Go()
T489C 000:762.273   CPU_ReadMem(4 bytes @ 0xE0001000)
T489C 000:765.603 - 3.342ms
T489C 000:765.623 JLINK_IsHalted()
T489C 000:765.974 - 0.350ms returns FALSE
T489C 000:766.044 JLINK_HasError()
T489C 000:769.032 JLINK_IsHalted()
T489C 000:769.418 - 0.385ms returns FALSE
T489C 000:769.438 JLINK_HasError()
T489C 000:772.056 JLINK_IsHalted()
T489C 000:774.719   CPU_ReadMem(2 bytes @ 0x20000000)
T489C 000:775.152 - 3.094ms returns TRUE
T489C 000:775.166 JLINK_ReadReg(R15 (PC))
T489C 000:775.174 - 0.008ms returns 0x20000000
T489C 000:775.181 JLINK_ClrBPEx(BPHandle = 0x00000007)
T489C 000:775.186 - 0.005ms returns 0x00
T489C 000:775.192 JLINK_ReadReg(R0)
T489C 000:775.197 - 0.005ms returns 0x00000000
T489C 000:775.717 JLINK_WriteMem(0x20000184, 0x27C Bytes, ...)
T489C 000:775.731   Data:  70 29 00 08 04 48 05 49 00 68 09 68 04 4A C1 F3 ...
T489C 000:775.746   CPU_WriteMem(636 bytes @ 0x20000184)
T489C 000:779.200 - 3.482ms returns 0x27C
T489C 000:779.213 JLINK_WriteMem(0x20000400, 0x184 Bytes, ...)
T489C 000:779.218   Data:  30 68 20 F0 04 00 30 60 A0 68 B8 B1 FF F7 7C FD ...
T489C 000:779.231   CPU_WriteMem(388 bytes @ 0x20000400)
T489C 000:781.548 - 2.335ms returns 0x184
T489C 000:781.565 JLINK_HasError()
T489C 000:781.573 JLINK_WriteReg(R0, 0x08000800)
T489C 000:781.581 - 0.008ms returns 0
T489C 000:781.588 JLINK_WriteReg(R1, 0x00000400)
T489C 000:781.594 - 0.006ms returns 0
T489C 000:781.601 JLINK_WriteReg(R2, 0x20000184)
T489C 000:781.607 - 0.005ms returns 0
T489C 000:781.635 JLINK_WriteReg(R3, 0x00000000)
T489C 000:781.641 - 0.006ms returns 0
T489C 000:781.648 JLINK_WriteReg(R4, 0x00000000)
T489C 000:781.654 - 0.005ms returns 0
T489C 000:781.661 JLINK_WriteReg(R5, 0x00000000)
T489C 000:781.667 - 0.005ms returns 0
T489C 000:781.673 JLINK_WriteReg(R6, 0x00000000)
T489C 000:781.679 - 0.005ms returns 0
T489C 000:781.686 JLINK_WriteReg(R7, 0x00000000)
T489C 000:781.691 - 0.005ms returns 0
T489C 000:781.698 JLINK_WriteReg(R8, 0x00000000)
T489C 000:781.704 - 0.006ms returns 0
T489C 000:781.711 JLINK_WriteReg(R9, 0x20000180)
T489C 000:781.716 - 0.005ms returns 0
T489C 000:781.723 JLINK_WriteReg(R10, 0x00000000)
T489C 000:781.728 - 0.005ms returns 0
T489C 000:781.740 JLINK_WriteReg(R11, 0x00000000)
T489C 000:781.749 - 0.009ms returns 0
T489C 000:781.756 JLINK_WriteReg(R12, 0x00000000)
T489C 000:781.762 - 0.005ms returns 0
T489C 000:781.769 JLINK_WriteReg(R13 (SP), 0x20001000)
T489C 000:781.775 - 0.006ms returns 0
T489C 000:781.782 JLINK_WriteReg(R14, 0x20000001)
T489C 000:781.787 - 0.005ms returns 0
T489C 000:781.794 JLINK_WriteReg(R15 (PC), 0x2000010C)
T489C 000:781.800 - 0.006ms returns 0
T489C 000:781.806 JLINK_WriteReg(XPSR, 0x01000000)
T489C 000:781.812 - 0.005ms returns 0
T489C 000:781.819 JLINK_WriteReg(MSP, 0x20001000)
T489C 000:781.824 - 0.006ms returns 0
T489C 000:781.831 JLINK_WriteReg(PSP, 0x20001000)
T489C 000:781.837 - 0.005ms returns 0
T489C 000:781.843 JLINK_WriteReg(CFBP, 0x00000000)
T489C 000:781.849 - 0.005ms returns 0
T489C 000:781.856 JLINK_SetBPEx(Addr = 0x20000000, Type = 0xFFFFFFF2)
T489C 000:781.864 - 0.007ms returns 0x00000008
T489C 000:781.870 JLINK_Go()
T489C 000:781.884   CPU_ReadMem(4 bytes @ 0xE0001000)
T489C 000:785.376 - 3.505ms
T489C 000:785.397 JLINK_IsHalted()
T489C 000:785.739 - 0.341ms returns FALSE
T489C 000:785.759 JLINK_HasError()
T489C 000:788.979 JLINK_IsHalted()
T489C 000:789.308 - 0.328ms returns FALSE
T489C 000:789.328 JLINK_HasError()
T489C 000:790.837 JLINK_IsHalted()
T489C 000:793.774   CPU_ReadMem(2 bytes @ 0x20000000)
T489C 000:794.145 - 3.307ms returns TRUE
T489C 000:794.182 JLINK_ReadReg(R15 (PC))
T489C 000:794.192 - 0.009ms returns 0x20000000
T489C 000:794.198 JLINK_ClrBPEx(BPHandle = 0x00000008)
T489C 000:794.204 - 0.006ms returns 0x00
T489C 000:794.210 JLINK_ReadReg(R0)
T489C 000:794.215 - 0.005ms returns 0x00000000
T489C 000:794.702 JLINK_WriteMem(0x20000184, 0x27C Bytes, ...)
T489C 000:794.713   Data:  10 BD 4F F0 E0 24 60 61 0F 21 60 17 00 F0 66 FA ...
T489C 000:794.728   CPU_WriteMem(636 bytes @ 0x20000184)
T489C 000:798.437 - 3.735ms returns 0x27C
T489C 000:798.461 JLINK_WriteMem(0x20000400, 0x184 Bytes, ...)
T489C 000:798.467   Data:  14 21 0C A8 FF F7 50 FA 17 48 00 24 01 68 41 F0 ...
T489C 000:798.483   CPU_WriteMem(388 bytes @ 0x20000400)
T489C 000:800.988 - 2.526ms returns 0x184
T489C 000:801.014 JLINK_HasError()
T489C 000:801.024 JLINK_WriteReg(R0, 0x08000C00)
T489C 000:801.034 - 0.010ms returns 0
T489C 000:801.042 JLINK_WriteReg(R1, 0x00000400)
T489C 000:801.049 - 0.007ms returns 0
T489C 000:801.057 JLINK_WriteReg(R2, 0x20000184)
T489C 000:801.067 - 0.009ms returns 0
T489C 000:801.075 JLINK_WriteReg(R3, 0x00000000)
T489C 000:801.081 - 0.006ms returns 0
T489C 000:801.089 JLINK_WriteReg(R4, 0x00000000)
T489C 000:801.096 - 0.006ms returns 0
T489C 000:801.103 JLINK_WriteReg(R5, 0x00000000)
T489C 000:801.111 - 0.007ms returns 0
T489C 000:801.119 JLINK_WriteReg(R6, 0x00000000)
T489C 000:801.125 - 0.006ms returns 0
T489C 000:801.133 JLINK_WriteReg(R7, 0x00000000)
T489C 000:801.140 - 0.006ms returns 0
T489C 000:801.147 JLINK_WriteReg(R8, 0x00000000)
T489C 000:801.154 - 0.007ms returns 0
T489C 000:801.164 JLINK_WriteReg(R9, 0x20000180)
T489C 000:801.172 - 0.007ms returns 0
T489C 000:801.179 JLINK_WriteReg(R10, 0x00000000)
T489C 000:801.186 - 0.006ms returns 0
T489C 000:801.194 JLINK_WriteReg(R11, 0x00000000)
T489C 000:801.201 - 0.006ms returns 0
T489C 000:801.211 JLINK_WriteReg(R12, 0x00000000)
T489C 000:801.217 - 0.006ms returns 0
T489C 000:801.225 JLINK_WriteReg(R13 (SP), 0x20001000)
T489C 000:801.233 - 0.007ms returns 0
T489C 000:801.240 JLINK_WriteReg(R14, 0x20000001)
T489C 000:801.247 - 0.006ms returns 0
T489C 000:801.257 JLINK_WriteReg(R15 (PC), 0x2000010C)
T489C 000:801.264 - 0.009ms returns 0
T489C 000:801.272 JLINK_WriteReg(XPSR, 0x01000000)
T489C 000:801.279 - 0.006ms returns 0
T489C 000:801.286 JLINK_WriteReg(MSP, 0x20001000)
T489C 000:801.293 - 0.006ms returns 0
T489C 000:801.304 JLINK_WriteReg(PSP, 0x20001000)
T489C 000:801.310 - 0.006ms returns 0
T489C 000:801.318 JLINK_WriteReg(CFBP, 0x00000000)
T489C 000:801.325 - 0.007ms returns 0
T489C 000:801.334 JLINK_SetBPEx(Addr = 0x20000000, Type = 0xFFFFFFF2)
T489C 000:801.348 - 0.014ms returns 0x00000009
T489C 000:801.361 JLINK_Go()
T489C 000:801.377   CPU_ReadMem(4 bytes @ 0xE0001000)
T489C 000:804.353 - 2.990ms
T489C 000:804.382 JLINK_IsHalted()
T489C 000:804.774 - 0.391ms returns FALSE
T489C 000:804.786 JLINK_HasError()
T489C 000:808.291 JLINK_IsHalted()
T489C 000:811.047   CPU_ReadMem(2 bytes @ 0x20000000)
T489C 000:811.392 - 3.100ms returns TRUE
T489C 000:811.405 JLINK_ReadReg(R15 (PC))
T489C 000:811.416 - 0.010ms returns 0x20000000
T489C 000:811.424 JLINK_ClrBPEx(BPHandle = 0x00000009)
T489C 000:811.432 - 0.007ms returns 0x00
T489C 000:811.441 JLINK_ReadReg(R0)
T489C 000:811.448 - 0.007ms returns 0x00000000
T489C 000:812.200 JLINK_WriteMem(0x20000184, 0x27C Bytes, ...)
T489C 000:812.221   Data:  88 60 70 BD A0 FB 01 01 92 18 5B 41 FF F7 40 F9 ...
